[21:15:37][C][display.ssd1306:280]: Setting up I2C SSD1306...
[21:15:37][VV][i2c:079]: Beginning Transmission to 0x3C:
[21:15:37][VV][i2c:084]:     Transmission ended. Status code: 0x00
[21:15:37][VV][i2c:079]: Beginning Transmission to 0x3C:
[21:15:37][VV][i2c:117]:     Writing 0b00000000 (0x00)
[21:15:37][VV][i2c:117]:     Writing 0b10101110 (0xAE)
[21:15:37][VV][i2c:084]:     Transmission ended. Status code: 0x00
[21:15:37][VV][i2c:079]: Beginning Transmission to 0x3C:
[21:15:37][VV][i2c:117]:     Writing 0b00000000 (0x00)
[21:15:37][VV][i2c:117]:     Writing 0b11010101 (0xD5)
[21:15:37][VV][i2c:084]:     Transmission ended. Status code: 0x00
[21:15:37][VV][i2c:079]: Beginning Transmission to 0x3C:
[21:15:37][VV][i2c:117]:     Writing 0b00000000 (0x00)
[21:15:37][VV][i2c:117]:     Writing 0b10000000 (0x80)
[21:15:38][VV][i2c:084]:     Transmission ended. Status code: 0x00
[21:15:38][VV][i2c:079]: Beginning Transmission to 0x3C:
[21:15:38][VV][i2c:117]:     Writing 0b00000000 (0x00)
[21:15:38][VV][i2c:117]:     Writing 0b10101000 (0xA8)
[21:15:38][VV][i2c:084]:     Transmission ended. Status code: 0x00
[21:15:38][VV][i2c:079]: Beginning Transmission to 0x3C:
[21:15:38][VV][i2c:117]:     Writing 0b00000000 (0x00)
[21:15:38][VV][i2c:117]:     Writing 0b00111111 (0x3F)
[21:15:38][VV][i2c:084]:     Transmission ended. Status code: 0x00
[21:15:38][VV][i2c:079]: Beginning Transmission to 0x3C:
[21:15:38][VV][i2c:117]:     Writing 0b00000000 (0x00)
[21:15:38][VV][i2c:117]:     Writing 0b11010011 (0xD3)
[21:15:38][VV][i2c:084]:     Transmission ended. Status code: 0x00
[21:15:38][VV][i2c:079]: Beginning Transmission to 0x3C:
[21:15:38][VV][i2c:117]:     Writing 0b00000000 (0x00)
[21:15:38][VV][i2c:117]:     Writing 0b00000000 (0x00)
[21:15:38][VV][i2c:084]:     Transmission ended. Status code: 0x00
[21:15:38][VV][i2c:079]: Beginning Transmission to 0x3C:
[21:15:38][VV][i2c:117]:     Writing 0b00000000 (0x00)
[21:15:38][VV][i2c:117]:     Writing 0b01000000 (0x40)
[21:15:38][VV][i2c:084]:     Transmission ended. Status code: 0x00
[21:15:38][VV][i2c:079]: Beginning Transmission to 0x3C:
[21:15:38][VV][i2c:117]:     Writing 0b00000000 (0x00)
[21:15:38][VV][i2c:117]:     Writing 0b10001101 (0x8D)
[21:15:38][VV][i2c:084]:     Transmission ended. Status code: 0x00
[21:15:38][VV][i2c:079]: Beginning Transmission to 0x3C:
[21:15:39][VV][i2c:117]:     Writing 0b00000000 (0x00)
[21:15:39][VV][i2c:117]:     Writing 0b00010000 (0x10)
[21:15:39][VV][i2c:084]:     Transmission ended. Status code: 0x00
[21:15:39][VV][i2c:079]: Beginning Transmission to 0x3C:
[21:15:39][VV][i2c:117]:     Writing 0b00000000 (0x00)
[21:15:39][VV][i2c:117]:     Writing 0b00100000 (0x20)
[21:15:39][VV][i2c:084]:     Transmission ended. Status code: 0x00
[21:15:39][VV][i2c:079]: Beginning Transmission to 0x3C:
[21:15:39][VV][i2c:117]:     Writing 0b00000000 (0x00)
[21:15:39][VV][i2c:117]:     Writing 0b00000000 (0x00)
[21:15:39][VV][i2c:084]:     Transmission ended. Status code: 0x00
[21:15:39][VV][i2c:079]: Beginning Transmission to 0x3C:
[21:15:39][VV][i2c:117]:     Writing 0b00000000 (0x00)
[21:15:39][VV][i2c:117]:     Writing 0b10100001 (0xA1)
[21:15:39][VV][i2c:084]:     Transmission ended. Status code: 0x00
[21:15:39][VV][i2c:079]: Beginning Transmission to 0x3C:
[21:15:39][VV][i2c:117]:     Writing 0b00000000 (0x00)
[21:15:39][VV][i2c:117]:     Writing 0b11001000 (0xC8)
[21:15:39][VV][i2c:084]:     Transmission ended. Status code: 0x00
[21:15:39][VV][i2c:079]: Beginning Transmission to 0x3C:
[21:15:39][VV][i2c:117]:     Writing 0b00000000 (0x00)
[21:15:39][VV][i2c:117]:     Writing 0b11011010 (0xDA)
[21:15:39][VV][i2c:084]:     Transmission ended. Status code: 0x00
[21:15:39][VV][i2c:079]: Beginning Transmission to 0x3C:
[21:15:39][VV][i2c:117]:     Writing 0b00000000 (0x00)
[21:15:40][VV][i2c:117]:     Writing 0b00010010 (0x12)
[21:15:40][VV][i2c:084]:     Transmission ended. Status code: 0x00
[21:15:40][VV][i2c:079]: Beginning Transmission to 0x3C:
[21:15:40][VV][i2c:117]:     Writing 0b00000000 (0x00)
[21:15:40][VV][i2c:117]:     Writing 0b10000001 (0x81)
[21:15:40][VV][i2c:084]:     Transmission ended. Status code: 0x00
[21:15:40][VV][i2c:079]: Beginning Transmission to 0x3C:
[21:15:40][VV][i2c:117]:     Writing 0b00000000 (0x00)
[21:15:40][VV][i2c:117]:     Writing 0b10011111 (0x9F)
[21:15:40][VV][i2c:084]:     Transmission ended. Status code: 0x00
[21:15:40][VV][i2c:079]: Beginning Transmission to 0x3C:
[21:15:40][VV][i2c:117]:     Writing 0b00000000 (0x00)
[21:15:40][VV][i2c:117]:     Writing 0b11011001 (0xD9)
[21:15:40][VV][i2c:084]:     Transmission ended. Status code: 0x00
[21:15:40][VV][i2c:079]: Beginning Transmission to 0x3C:
[21:15:40][VV][i2c:117]:     Writing 0b00000000 (0x00)
[21:15:40][VV][i2c:117]:     Writing 0b00100010 (0x22)
[21:15:40][VV][i2c:084]:     Transmission ended. Status code: 0x00
[21:15:40][VV][i2c:079]: Beginning Transmission to 0x3C:
[21:15:40][VV][i2c:117]:     Writing 0b00000000 (0x00)
[21:15:40][VV][i2c:117]:     Writing 0b11011011 (0xDB)
[21:15:40][VV][i2c:084]:     Transmission ended. Status code: 0x00
[21:15:40][VV][i2c:079]: Beginning Transmission to 0x3C:
[21:15:40][VV][i2c:117]:     Writing 0b00000000 (0x00)
[21:15:40][VV][i2c:117]:     Writing 0b01000000 (0x40)
[21:15:41][VV][i2c:084]:     Transmission ended. Status code: 0x00
[21:15:41][VV][i2c:079]: Beginning Transmission to 0x3C:
[21:15:41][VV][i2c:117]:     Writing 0b00000000 (0x00)
[21:15:41][VV][i2c:117]:     Writing 0b10100100 (0xA4)
[21:15:41][VV][i2c:084]:     Transmission ended. Status code: 0x00
[21:15:41][VV][i2c:079]: Beginning Transmission to 0x3C:
[21:15:41][VV][i2c:117]:     Writing 0b00000000 (0x00)
[21:15:41][VV][i2c:117]:     Writing 0b10100110 (0xA6)
[21:15:41][VV][i2c:084]:     Transmission ended. Status code: 0x00
[21:15:41][VV][i2c:079]: Beginning Transmission to 0x3C:
[21:15:41][VV][i2c:117]:     Writing 0b00000000 (0x00)
[21:15:41][VV][i2c:117]:     Writing 0b00101110 (0x2E)
[21:15:41][VV][i2c:084]:     Transmission ended. Status code: 0x00
[21:15:41][VV][i2c:079]: Beginning Transmission to 0x3C:
[21:15:41][VV][i2c:117]:     Writing 0b00000000 (0x00)
[21:15:41][VV][i2c:117]:     Writing 0b10101111 (0xAF)
[21:15:41][VV][i2c:084]:     Transmission ended. Status code: 0x00
[21:15:41][C][component:243]:     Update interval: 5000ms
[21:15:41][V][component:062]: set_interval(name='update', interval=5000, offset=1380)
[21:15:41][C][wifi:031]: Setting up WiFi...
[21:15:41][I][wifi:239]: WiFi Connecting to 'MSS_nomap'...
[21:15:41][C][wifi:256]:     STA Hostname: 'multisensor2'
[21:15:41][VV][component:136]: Running interval 'update':0 with interval=5000 last_execution=4294961567 (now=669)
[21:15:41][VV][i2c:079]: Beginning Transmission to 0x3C:
[21:15:42][VV][i2c:117]:     Writing 0b00000000 (0x00)
[21:15:42][VV][i2c:117]:     Writing 0b00100001 (0x21)
[21:15:42][VV][i2c:084]:     Transmission ended. Status code: 0x00
[21:15:42][VV][i2c:079]: Beginning Transmission to 0x3C:
[21:15:42][VV][i2c:117]:     Writing 0b00000000 (0x00)
[21:15:42][VV][i2c:117]:     Writing 0b00000000 (0x00)
[21:15:42][VV][i2c:084]:     Transmission ended. Status code: 0x00
[21:15:42][VV][i2c:079]: Beginning Transmission to 0x3C:
[21:15:42][VV][i2c:117]:     Writing 0b00000000 (0x00)
[21:15:42][VV][i2c:117]:     Writing 0b01111111 (0x7F)
[21:15:42][VV][i2c:084]:     Transmission ended. Status code: 0x00
[21:15:42][VV][i2c:079]: Beginning Transmission to 0x3C:
[21:15:42][VV][i2c:117]:     Writing 0b00000000 (0x00)
[21:15:42][VV][i2c:117]:     Writing 0b00100010 (0x22)
[21:15:42][VV][i2c:084]:     Transmission ended. Status code: 0x00
[21:15:42][VV][i2c:079]: Beginning Transmission to 0x3C:
[21:15:42][VV][i2c:117]:     Writing 0b00000000 (0x00)
[21:15:42][VV][i2c:117]:     Writing 0b00000000 (0x00)
[21:15:42][VV][i2c:084]:     Transmission ended. Status code: 0x00
[21:15:42][VV][i2c:079]: Beginning Transmission to 0x3C:
[21:15:42][VV][i2c:117]:     Writing 0b00000000 (0x00)
[21:15:42][VV][i2c:117]:     Writing 0b00000111 (0x07)
[21:15:42][VV][i2c:084]:     Transmission ended. Status code: 0x00
[21:15:42][VV][i2c:079]: Beginning Transmission to 0x3C:
[21:15:42][VV][i2c:117]:     Writing 0b01000000 (0x40)
[21:15:43][VV][i2c:117]:     Writing 0b00000000 (0x00)
[21:15:43][VV][i2c:117]:     Writing 0b00000000 (0x00)
[21:15:43][VV][i2c:117]:     Writing 0b00000000 (0x00)
[21:15:43][VV][i2c:117]:     Writing 0b00000000 (0x00)
[21:15:43][VV][i2c:117]:     Writing 0b00000000 (0x00)
[21:15:43][VV][i2c:117]:     Writing 0b00000000 (0x00)
[21:15:43][VV][i2c:117]:     Writing 0b00000000 (0x00)
[21:15:43][VV][i2c:117]:     Writing 0b00000000 (0x00)
[21:15:43][VV][i2c:117]:     Writing 0b00000000 (0x00)
[21:15:43][VV][i2c:117]:     Writing 0b00000000 (0x00)
[21:15:43][VV][i2c:117]:     Writing 0b00000000 (0x00)
[21:15:43][VV][i2c:117]:     Writing 0b00000000 (0x00)
[21:15:43][VV][i2c:117]:     Writing 0b00000000 (0x00)
[21:15:43][VV][i2c:117]:     Writing 0b00000000 (0x00)
[21:15:43][VV][i2c:117]:     Writing 0b00000000 (0x00)
[21:15:43][VV][i2c:117]:     Writing 0b00000000 (0x00)
[21:15:43][VV][i2c:084]:     Transmission ended. Status code: 0x00
[21:15:43][VV][i2c:079]: Beginning Transmission to 0x3C:
[21:15:43][VV][i2c:117]:     Writing 0b01000000 (0x40)
[21:15:43][VV][i2c:117]:     Writing 0b00000000 (0x00)
[21:15:43][VV][i2c:117]:     Writing 0b00000000 (0x00)
[21:15:43][VV][i2c:117]:     Writing 0b00000000 (0x00)
[21:15:43][VV][i2c:117]:     Writing 0b00000000 (0x00)
[21:15:43][VV][i2c:117]:     Writing 0b00000000 (0x00)
[21:15:43][VV][i2c:117]:     Writing 0b00000000 (0x00)
[21:15:43][VV][i2c:117]:     Writing 0b00000000 (0x00)
[21:15:44][VV][i2c:117]:     Writing 0b00000000 (0x00)
[21:15:44][VV][i2c:117]:     Writing 0b00000000 (0x00)
[21:15:44][VV][i2c:117]:     Writing 0b00000000 (0x00)
[21:15:44][VV][i2c:117]:     Writing 0b00000000 (0x00)
[21:15:44][VV][i2c:117]:     Writing 0b00000000 (0x00)
[21:15:44][VV][i2c:117]:     Writing 0b00000000 (0x00)
[21:15:44][VV][i2c:117]:     Writing 0b00000000 (0x00)
[21:15:44][VV][i2c:117]:     Writing 0b00000000 (0x00)
[21:15:44][VV][i2c:117]:     Writing 0b00000000 (0x00)
[21:15:44][VV][i2c:084]:     Transmission ended. Status code: 0x00
[21:15:44][VV][i2c:079]: Beginning Transmission to 0x3C:
[21:15:44][VV][i2c:117]:     Writing 0b01000000 (0x40)
[21:15:44][VV][i2c:117]:     Writing 0b00000000 (0x00)
[21:15:44][VV][i2c:117]:     Writing 0b00000000 (0x00)
[21:15:44][VV][i2c:117]:     Writing 0b00000000 (0x00)
[21:15:44][VV][i2c:117]:     Writing 0b00000000 (0x00)
[21:15:44][VV][i2c:117]:     Writing 0b00000000 (0x00)
[21:15:44][VV][i2c:117]:     Writing 0b00000000 (0x00)
[21:15:44][VV][i2c:117]:     Writing 0b00000000 (0x00)
[21:15:44][VV][i2c:117]:     Writing 0b00000000 (0x00)
[21:15:44][VV][i2c:117]:     Writing 0b00000000 (0x00)
[21:15:44][VV][i2c:117]:     Writing 0b00000000 (0x00)
[21:15:44][VV][i2c:117]:     Writing 0b00000000 (0x00)
[21:15:44][VV][i2c:117]:     Writing 0b00000000 (0x00)
[21:15:44][VV][i2c:117]:     Writing 0b00000000 (0x00)
[21:15:44][VV][i2c:117]:     Writing 0b00000000 (0x00)
[21:15:44][VV][i2c:117]:     Writing 0b00000000 (0x00)
[21:15:45][VV][i2c:117]:     Writing 0b00000000 (0x00)
[21:15:45][VV][i2c:084]:     Transmission ended. Status code: 0x00
[21:15:45][VV][i2c:079]: Beginning Transmission to 0x3C:
[21:15:45][VV][i2c:117]:     Writing 0b01000000 (0x40)
[21:15:45][VV][i2c:117]:     Writing 0b00000000 (0x00)
[21:15:45][VV][i2c:117]:     Writing 0b00000000 (0x00)
[21:15:45][VV][i2c:117]:     Writing 0b00000000 (0x00)
[21:15:45][VV][i2c:117]:     Writing 0b00000000 (0x00)
[21:15:45][VV][i2c:117]:     Writing 0b00000000 (0x00)
[21:15:45][VV][i2c:117]:     Writing 0b00000000 (0x00)
[21:15:45][VV][i2c:117]:     Writing 0b00000000 (0x00)
[21:15:45][VV][i2c:117]:     Writing 0b00000000 (0x00)
[21:15:45][VV][i2c:117]:     Writing 0b00000000 (0x00)
[21:15:45][VV][i2c:117]:     Writing 0b00000000 (0x00)
[21:15:45][VV][i2c:117]:     Writing 0b00000000 (0x00)
[21:15:45][VV][i2c:117]:     Writing 0b00000000 (0x00)
[21:15:45][VV][i2c:117]:     Writing 0b00000000 (0x00)
[21:15:45][VV][i2c:117]:     Writing 0b00000000 (0x00)
[21:15:45][VV][i2c:117]:     Writing 0b00000000 (0x00)
[21:15:45][VV][i2c:117]:     Writing 0b00000000 (0x00)
[21:15:45][VV][i2c:084]:     Transmission ended. Status code: 0x00
[21:15:45][VV][i2c:079]: Beginning Transmission to 0x3C:
[21:15:45][VV][i2c:117]:     Writing 0b01000000 (0x40)
[21:15:45][VV][i2c:117]:     Writing 0b00000000 (0x00)
[21:15:45][VV][i2c:117]:     Writing 0b00000000 (0x00)
[21:15:45][VV][i2c:117]:     Writing 0b00000000 (0x00)
[21:15:45][VV][i2c:117]:     Writing 0b00000000 (0x00)
[21:15:46][VV][i2c:117]:     Writing 0b00000000 (0x00)
[21:15:46][VV][i2c:117]:     Writing 0b00000000 (0x00)
[21:15:46][VV][i2c:117]:     Writing 0b00000000 (0x00)
[21:15:46][VV][i2c:117]:     Writing 0b00000000 (0x00)
[21:15:46][VV][i2c:117]:     Writing 0b00000000 (0x00)
[21:15:46][VV][i2c:117]:     Writing 0b00000000 (0x00)
[21:15:46][VV][i2c:117]:     Writing 0b00000000 (0x00)
[21:15:46][VV][i2c:117]:     Writing 0b00000000 (0x00)
[21:15:46][VV][i2c:117]:     Writing 0b00000000 (0x00)
[21:15:46][VV][i2c:117]:     Writing 0b00000000 (0x00)
[21:15:46][VV][i2c:117]:     Writing 0b00000000 (0x00)
[21:15:46][VV][i2c:117]:     Writing 0b00000000 (0x00)
[21:15:46][VV][i2c:084]:     Transmission ended. Status code: 0x00
[21:15:46][VV][i2c:079]: Beginning Transmission to 0x3C:
[21:15:46][VV][i2c:117]:     Writing 0b01000000 (0x40)
[21:15:46][VV][i2c:117]:     Writing 0b00000000 (0x00)
[21:15:46][VV][i2c:117]:     Writing 0b00000000 (0x00)
[21:15:46][VV][i2c:117]:     Writing 0b00000000 (0x00)
[21:15:46][VV][i2c:117]:     Writing 0b00000000 (0x00)
[21:15:46][VV][i2c:117]:     Writing 0b00000000 (0x00)
[21:15:46][VV][i2c:117]:     Writing 0b00000000 (0x00)
[21:15:46][VV][i2c:117]:     Writing 0b00000000 (0x00)
[21:15:46][VV][i2c:117]:     Writing 0b00000000 (0x00)
[21:15:46][VV][i2c:117]:     Writing 0b00000000 (0x00)
[21:15:46][VV][i2c:117]:     Writing 0b00000000 (0x00)
[21:15:46][VV][i2c:117]:     Writing 0b00000000 (0x00)
[21:15:46][VV][i2c:117]:     Writing 0b00000000 (0x00)
[21:15:47][VV][i2c:117]:     Writing 0b00000000 (0x00)
[21:15:47][VV][i2c:117]:     Writing 0b00000000 (0x00)
[21:15:47][VV][i2c:117]:     Writing 0b00000000 (0x00)
[21:15:47][VV][i2c:117]:     Writing 0b00000000 (0x00)
[21:15:47][VV][i2c:084]:     Transmission ended. Status code: 0x00
[21:15:47][VV][i2c:079]: Beginning Transmission to 0x3C:
[21:15:47][VV][i2c:117]:     Writing 0b01000000 (0x40)
[21:15:47][VV][i2c:117]:     Writing 0b00000000 (0x00)
[21:15:47][VV][i2c:117]:     Writing 0b00000000 (0x00)
[21:15:47][VV][i2c:117]:     Writing 0b00000000 (0x00)
[21:15:47][VV][i2c:117]:     Writing 0b00000000 (0x00)
[21:15:47][VV][i2c:117]:     Writing 0b00000000 (0x00)
[21:15:47][VV][i2c:117]:     Writing 0b00000000 (0x00)
[21:15:47][VV][i2c:117]:     Writing 0b00000000 (0x00)
[21:15:47][VV][i2c:117]:     Writing 0b00000000 (0x00)
[21:15:47][VV][i2c:117]:     Writing 0b00000000 (0x00)
[21:15:47][VV][i2c:117]:     Writing 0b00000000 (0x00)
[21:15:47][VV][i2c:117]:     Writing 0b00000000 (0x00)
[21:15:47][VV][i2c:117]:     Writing 0b00000000 (0x00)
[21:15:47][VV][i2c:117]:     Writing 0b00000000 (0x00)
[21:15:47][VV][i2c:117]:     Writing 0b00000000 (0x00)
[21:15:47][VV][i2c:117]:     Writing 0b00000000 (0x00)
[21:15:47][VV][i2c:117]:     Writing 0b00000000 (0x00)
[21:15:47][VV][i2c:084]:     Transmission ended. Status code: 0x00
[21:15:47][VV][i2c:079]: Beginning Transmission to 0x3C:
[21:15:47][VV][i2c:117]:     Writing 0b01000000 (0x40)
[21:15:48][VV][i2c:117]:     Writing 0b00000000 (0x00)
[21:15:48][VV][i2c:117]:     Writing 0b00000000 (0x00)
[21:15:48][VV][i2c:117]:     Writing 0b00000000 (0x00)
[21:15:48][VV][i2c:117]:     Writing 0b00000000 (0x00)
[21:15:48][VV][i2c:117]:     Writing 0b00000000 (0x00)
[21:15:48][VV][i2c:117]:     Writing 0b00000000 (0x00)
[21:15:48][VV][i2c:117]:     Writing 0b00000000 (0x00)
[21:15:48][VV][i2c:117]:     Writing 0b00000000 (0x00)
[21:15:48][VV][i2c:117]:     Writing 0b00000000 (0x00)
[21:15:48][VV][i2c:117]:     Writing 0b00000000 (0x00)
[21:15:48][VV][i2c:117]:     Writing 0b00000000 (0x00)
[21:15:48][VV][i2c:117]:     Writing 0b00000000 (0x00)
[21:15:48][VV][i2c:117]:     Writing 0b00000000 (0x00)
[21:15:48][VV][i2c:117]:     Writing 0b00000000 (0x00)
[21:15:48][VV][i2c:117]:     Writing 0b00000000 (0x00)
[21:15:48][VV][i2c:117]:     Writing 0b00000000 (0x00)
[21:15:48][VV][i2c:084]:     Transmission ended. Status code: 0x00
[21:15:48][VV][i2c:079]: Beginning Transmission to 0x3C:
[21:15:48][VV][i2c:117]:     Writing 0b01000000 (0x40)
[21:15:48][VV][i2c:117]:     Writing 0b00000000 (0x00)
[21:15:48][VV][i2c:117]:     Writing 0b00000000 (0x00)
[21:15:48][VV][i2c:117]:     Writing 0b00000000 (0x00)
[21:15:48][VV][i2c:117]:     Writing 0b00000000 (0x00)
[21:15:48][VV][i2c:117]:     Writing 0b00000000 (0x00)
[21:15:48][VV][i2c:117]:     Writing 0b00000000 (0x00)
[21:15:48][VV][i2c:117]:     Writing 0b00000000 (0x00)
[21:15:49][VV][i2c:117]:     Writing 0b00000000 (0x00)
[21:15:49][VV][i2c:117]:     Writing 0b00000000 (0x00)
[21:15:49][VV][i2c:117]:     Writing 0b00000000 (0x00)
[21:15:49][VV][i2c:117]:     Writing 0b00000000 (0x00)
[21:15:49][VV][i2c:117]:     Writing 0b00000000 (0x00)
[21:15:49][VV][i2c:117]:     Writing 0b00000000 (0x00)
[21:15:49][VV][i2c:117]:     Writing 0b00000000 (0x00)
[21:15:49][VV][i2c:117]:     Writing 0b00000000 (0x00)
[21:15:49][VV][i2c:117]:     Writing 0b00000000 (0x00)
[21:15:49][VV][i2c:084]:     Transmission ended. Status code: 0x00
[21:15:49][VV][i2c:079]: Beginning Transmission to 0x3C:
[21:15:49][VV][i2c:117]:     Writing 0b01000000 (0x40)
[21:15:49][VV][i2c:117]:     Writing 0b00000000 (0x00)
[21:15:49][VV][i2c:117]:     Writing 0b00000000 (0x00)
[21:15:49][VV][i2c:117]:     Writing 0b00000000 (0x00)
[21:15:49][VV][i2c:117]:     Writing 0b00000000 (0x00)
[21:15:49][VV][i2c:117]:     Writing 0b00000000 (0x00)
[21:15:49][VV][i2c:117]:     Writing 0b00000000 (0x00)
[21:15:49][VV][i2c:117]:     Writing 0b00000000 (0x00)
[21:15:49][VV][i2c:117]:     Writing 0b00000000 (0x00)
[21:15:49][VV][i2c:117]:     Writing 0b00000000 (0x00)
[21:15:49][VV][i2c:117]:     Writing 0b00000000 (0x00)
[21:15:49][VV][i2c:117]:     Writing 0b00000000 (0x00)
[21:15:49][VV][i2c:117]:     Writing 0b00000000 (0x00)
[21:15:49][VV][i2c:117]:     Writing 0b00000000 (0x00)
[21:15:49][VV][i2c:117]:     Writing 0b00000000 (0x00)
[21:15:49][VV][i2c:117]:     Writing 0b00000000 (0x00)
[21:15:50][VV][i2c:117]:     Writing 0b00000000 (0x00)
[21:15:50][VV][i2c:084]:     Transmission ended. Status code: 0x00
[21:15:50][VV][i2c:079]: Beginning Transmission to 0x3C:
[21:15:50][VV][i2c:117]:     Writing 0b01000000 (0x40)
[21:15:50][VV][i2c:117]:     Writing 0b00000000 (0x00)
[21:15:50][VV][i2c:117]:     Writing 0b00000000 (0x00)
[21:15:50][VV][i2c:117]:     Writing 0b00000000 (0x00)
[21:15:50][VV][i2c:117]:     Writing 0b00000000 (0x00)
[21:15:50][VV][i2c:117]:     Writing 0b00000000 (0x00)
[21:15:50][VV][i2c:117]:     Writing 0b00000000 (0x00)
[21:15:50][VV][i2c:117]:     Writing 0b00000000 (0x00)
[21:15:50][VV][i2c:117]:     Writing 0b00000000 (0x00)
[21:15:50][VV][i2c:117]:     Writing 0b00000000 (0x00)
[21:15:50][VV][i2c:117]:     Writing 0b00000000 (0x00)
[21:15:50][VV][i2c:117]:     Writing 0b00000000 (0x00)
[21:15:50][VV][i2c:117]:     Writing 0b00000000 (0x00)
[21:15:50][VV][i2c:117]:     Writing 0b00000000 (0x00)
[21:15:50][VV][i2c:117]:     Writing 0b00000000 (0x00)
[21:15:50][VV][i2c:117]:     Writing 0b00000000 (0x00)
[21:15:50][VV][i2c:117]:     Writing 0b00000000 (0x00)
[21:15:50][VV][i2c:084]:     Transmission ended. Status code: 0x00
[21:15:50][VV][i2c:079]: Beginning Transmission to 0x3C:
[21:15:50][VV][i2c:117]:     Writing 0b01000000 (0x40)
[21:15:50][VV][i2c:117]:     Writing 0b00000000 (0x00)
[21:15:50][VV][i2c:117]:     Writing 0b00000000 (0x00)
[21:15:51][VV][i2c:117]:     Writing 0b00000000 (0x00)
[21:15:51][VV][i2c:117]:     Writing 0b00000000 (0x00)
[21:15:51][VV][i2c:117]:     Writing 0b00000000 (0x00)
[21:15:51][VV][i2c:117]:     Writing 0b00000000 (0x00)
[21:15:51][VV][i2c:117]:     Writing 0b00000000 (0x00)
[21:15:51][VV][i2c:117]:     Writing 0b00000000 (0x00)
[21:15:51][VV][i2c:117]:     Writing 0b00000000 (0x00)
[21:15:51][VV][i2c:117]:     Writing 0b00000000 (0x00)
[21:15:51][VV][i2c:117]:     Writing 0b00000000 (0x00)
[21:15:51][VV][i2c:117]:     Writing 0b00000000 (0x00)
[21:15:51][VV][i2c:117]:     Writing 0b00000000 (0x00)
[21:15:51][VV][i2c:117]:     Writing 0b00000000 (0x00)
[21:15:51][VV][i2c:117]:     Writing 0b00000000 (0x00)
[21:15:51][VV][i2c:117]:     Writing 0b00000000 (0x00)
[21:15:51][VV][i2c:084]:     Transmission ended. Status code: 0x00
[21:15:51][VV][i2c:079]: Beginning Transmission to 0x3C:
[21:15:51][VV][i2c:117]:     Writing 0b01000000 (0x40)
[21:15:51][VV][i2c:117]:     Writing 0b00000000 (0x00)
[21:15:51][VV][i2c:117]:     Writing 0b00000000 (0x00)
[21:15:51][VV][i2c:117]:     Writing 0b00000000 (0x00)
[21:15:51][VV][i2c:117]:     Writing 0b00000000 (0x00)
[21:15:51][VV][i2c:117]:     Writing 0b00000000 (0x00)
[21:15:51][VV][i2c:117]:     Writing 0b00000000 (0x00)
[21:15:51][VV][i2c:117]:     Writing 0b00000000 (0x00)
[21:15:51][VV][i2c:117]:     Writing 0b00000000 (0x00)
[21:15:51][VV][i2c:117]:     Writing 0b00000000 (0x00)
[21:15:52][VV][i2c:117]:     Writing 0b00000000 (0x00)
[21:15:52][VV][i2c:117]:     Writing 0b00000000 (0x00)
[21:15:52][VV][i2c:117]:     Writing 0b00000000 (0x00)
[21:15:52][VV][i2c:117]:     Writing 0b00000000 (0x00)
[21:15:52][VV][i2c:117]:     Writing 0b00000000 (0x00)
[21:15:52][VV][i2c:117]:     Writing 0b00000000 (0x00)
[21:15:52][VV][i2c:117]:     Writing 0b00000000 (0x00)
[21:15:52][VV][i2c:084]:     Transmission ended. Status code: 0x00
[21:15:52][VV][i2c:079]: Beginning Transmission to 0x3C:
[21:15:52][VV][i2c:117]:     Writing 0b01000000 (0x40)
[21:15:52][VV][i2c:117]:     Writing 0b00000000 (0x00)
[21:15:52][VV][i2c:117]:     Writing 0b00000000 (0x00)
[21:15:52][VV][i2c:117]:     Writing 0b00000000 (0x00)
[21:15:52][VV][i2c:117]:     Writing 0b00000000 (0x00)
[21:15:52][VV][i2c:117]:     Writing 0b00000000 (0x00)
[21:15:52][VV][i2c:117]:     Writing 0b00000000 (0x00)
[21:15:52][VV][i2c:117]:     Writing 0b00000000 (0x00)
[21:15:52][VV][i2c:117]:     Writing 0b00000000 (0x00)
[21:15:52][VV][i2c:117]:     Writing 0b00000000 (0x00)
[21:15:52][VV][i2c:117]:     Writing 0b00000000 (0x00)
[21:15:52][VV][i2c:117]:     Writing 0b00000000 (0x00)
[21:15:52][VV][i2c:117]:     Writing 0b00000000 (0x00)
[21:15:52][VV][i2c:117]:     Writing 0b00000000 (0x00)
[21:15:52][VV][i2c:117]:     Writing 0b00000000 (0x00)
[21:15:52][VV][i2c:117]:     Writing 0b00000000 (0x00)
[21:15:52][VV][i2c:117]:     Writing 0b00000000 (0x00)
[21:15:52][VV][i2c:084]:     Transmission ended. Status code: 0x00
[21:15:53][VV][i2c:079]: Beginning Transmission to 0x3C:
[21:15:53][VV][i2c:117]:     Writing 0b01000000 (0x40)
[21:15:53][VV][i2c:117]:     Writing 0b00000000 (0x00)
[21:15:53][VV][i2c:117]:     Writing 0b00000000 (0x00)
[21:15:53][VV][i2c:117]:     Writing 0b00000000 (0x00)
[21:15:53][VV][i2c:117]:     Writing 0b00000000 (0x00)
[21:15:53][VV][i2c:117]:     Writing 0b00000000 (0x00)
[21:15:53][VV][i2c:117]:     Writing 0b00000000 (0x00)
[21:15:53][VV][i2c:117]:     Writing 0b00000000 (0x00)
[21:15:53][VV][i2c:117]:     Writing 0b00000000 (0x00)
[21:15:53][VV][i2c:117]:     Writing 0b00000000 (0x00)
[21:15:53][VV][i2c:117]:     Writing 0b00000000 (0x00)
[21:15:53][VV][i2c:117]:     Writing 0b00000000 (0x00)
[21:15:53][VV][i2c:117]:     Writing 0b00000000 (0x00)
[21:15:53][VV][i2c:117]:     Writing 0b00000000 (0x00)
[21:15:53][VV][i2c:117]:     Writing 0b00000000 (0x00)
[21:15:53][VV][i2c:117]:     Writing 0b00000000 (0x00)
[21:15:53][VV][i2c:117]:     Writing 0b00000000 (0x00)
[21:15:53][VV][i2c:084]:     Transmission ended. Status code: 0x00
[21:15:53][VV][i2c:079]: Beginning Transmission to 0x3C:
[21:15:53][VV][i2c:117]:     Writing 0b01000000 (0x40)
[21:15:53][VV][i2c:117]:     Writing 0b00000000 (0x00)
[21:15:53][VV][i2c:117]:     Writing 0b00000000 (0x00)
[21:15:53][VV][i2c:117]:     Writing 0b00000000 (0x00)
[21:15:53][VV][i2c:117]:     Writing 0b00000000 (0x00)
[21:15:53][VV][i2c:117]:     Writing 0b00000000 (0x00)
[21:15:54][VV][i2c:117]:     Writing 0b00000000 (0x00)
[21:15:54][VV][i2c:117]:     Writing 0b00000000 (0x00)
[21:15:54][VV][i2c:117]:     Writing 0b00000000 (0x00)
[21:15:54][VV][i2c:117]:     Writing 0b00000000 (0x00)
[21:15:54][VV][i2c:117]:     Writing 0b00000000 (0x00)
[21:15:54][VV][i2c:117]:     Writing 0b00000000 (0x00)
[21:15:54][VV][i2c:117]:     Writing 0b00000000 (0x00)
[21:15:54][VV][i2c:117]:     Writing 0b00000000 (0x00)
[21:15:54][VV][i2c:117]:     Writing 0b00000000 (0x00)
[21:15:54][VV][i2c:117]:     Writing 0b00000000 (0x00)
[21:15:54][VV][i2c:117]:     Writing 0b00000000 (0x00)
[21:15:54][VV][i2c:084]:     Transmission ended. Status code: 0x00
[21:15:54][VV][i2c:079]: Beginning Transmission to 0x3C:
[21:15:54][VV][i2c:117]:     Writing 0b01000000 (0x40)
[21:15:54][VV][i2c:117]:     Writing 0b00000000 (0x00)
[21:15:54][VV][i2c:117]:     Writing 0b00000000 (0x00)
[21:15:54][VV][i2c:117]:     Writing 0b00000000 (0x00)
[21:15:54][VV][i2c:117]:     Writing 0b00000000 (0x00)
[21:15:54][VV][i2c:117]:     Writing 0b00000000 (0x00)
[21:15:54][VV][i2c:117]:     Writing 0b00000000 (0x00)
[21:15:54][VV][i2c:117]:     Writing 0b00000000 (0x00)
[21:15:54][VV][i2c:117]:     Writing 0b00000000 (0x00)
[21:15:54][VV][i2c:117]:     Writing 0b00000000 (0x00)
[21:15:54][VV][i2c:117]:     Writing 0b00000000 (0x00)
[21:15:54][VV][i2c:117]:     Writing 0b00000000 (0x00)
[21:15:54][VV][i2c:117]:     Writing 0b00000000 (0x00)
[21:15:54][VV][i2c:117]:     Writing 0b00000000 (0x00)
[21:15:55][VV][i2c:117]:     Writing 0b00000000 (0x00)
[21:15:55][VV][i2c:117]:     Writing 0b00000000 (0x00)
[21:15:55][VV][i2c:117]:     Writing 0b00000000 (0x00)
[21:15:55][VV][i2c:084]:     Transmission ended. Status code: 0x00
[21:15:55][VV][i2c:079]: Beginning Transmission to 0x3C:
[21:15:55][VV][i2c:117]:     Writing 0b01000000 (0x40)
[21:15:55][VV][i2c:117]:     Writing 0b00000000 (0x00)
[21:15:55][VV][i2c:117]:     Writing 0b00000000 (0x00)
[21:15:55][VV][i2c:117]:     Writing 0b00000000 (0x00)
[21:15:55][VV][i2c:117]:     Writing 0b00000000 (0x00)
[21:15:55][VV][i2c:117]:     Writing 0b00000000 (0x00)
[21:15:55][VV][i2c:117]:     Writing 0b00000000 (0x00)
[21:15:55][VV][i2c:117]:     Writing 0b00000000 (0x00)
[21:15:55][VV][i2c:117]:     Writing 0b00000000 (0x00)
[21:15:55][VV][i2c:117]:     Writing 0b00000000 (0x00)
[21:15:55][VV][i2c:117]:     Writing 0b00000000 (0x00)
[21:15:55][VV][i2c:117]:     Writing 0b00000000 (0x00)
[21:15:55][VV][i2c:117]:     Writing 0b00000000 (0x00)
[21:15:55][VV][i2c:117]:     Writing 0b00000000 (0x00)
[21:15:55][VV][i2c:117]:     Writing 0b00000000 (0x00)
[21:15:55][VV][i2c:117]:     Writing 0b00000000 (0x00)
[21:15:55][VV][i2c:117]:     Writing 0b00000000 (0x00)
[21:15:55][VV][i2c:084]:     Transmission ended. Status code: 0x00
[21:15:55][VV][i2c:079]: Beginning Transmission to 0x3C:
[21:15:55][VV][i2c:117]:     Writing 0b01000000 (0x40)
[21:15:55][VV][i2c:117]:     Writing 0b00000000 (0x00)
[21:15:56][VV][i2c:117]:     Writing 0b00000000 (0x00)
[21:15:56][VV][i2c:117]:     Writing 0b00000000 (0x00)
[21:15:56][VV][i2c:117]:     Writing 0b00000000 (0x00)
[21:15:56][VV][i2c:117]:     Writing 0b00000000 (0x00)
[21:15:56][VV][i2c:117]:     Writing 0b00000000 (0x00)
[21:15:56][VV][i2c:117]:     Writing 0b00000000 (0x00)
[21:15:56][VV][i2c:117]:     Writing 0b00000000 (0x00)
[21:15:56][VV][i2c:117]:     Writing 0b00000000 (0x00)
[21:15:56][VV][i2c:117]:     Writing 0b00000000 (0x00)
[21:15:56][VV][i2c:117]:     Writing 0b00000000 (0x00)
[21:15:56][VV][i2c:117]:     Writing 0b00000000 (0x00)
[21:15:56][VV][i2c:117]:     Writing 0b00000000 (0x00)
[21:15:56][VV][i2c:117]:     Writing 0b00000000 (0x00)
[21:15:56][VV][i2c:117]:     Writing 0b00000000 (0x00)
[21:15:56][VV][i2c:117]:     Writing 0b00000000 (0x00)
[21:15:56][VV][i2c:084]:     Transmission ended. Status code: 0x00
[21:15:56][VV][i2c:079]: Beginning Transmission to 0x3C:
[21:15:56][VV][i2c:117]:     Writing 0b01000000 (0x40)
[21:15:56][VV][i2c:117]:     Writing 0b00000000 (0x00)
[21:15:56][VV][i2c:117]:     Writing 0b00000000 (0x00)
[21:15:56][VV][i2c:117]:     Writing 0b00000000 (0x00)
[21:15:56][VV][i2c:117]:     Writing 0b00000000 (0x00)
[21:15:56][VV][i2c:117]:     Writing 0b00000000 (0x00)
[21:15:56][VV][i2c:117]:     Writing 0b00000000 (0x00)
[21:15:56][VV][i2c:117]:     Writing 0b00000000 (0x00)
[21:15:56][VV][i2c:117]:     Writing 0b00000000 (0x00)
[21:15:57][VV][i2c:117]:     Writing 0b00000000 (0x00)
[21:15:57][VV][i2c:117]:     Writing 0b00000000 (0x00)
[21:15:57][VV][i2c:117]:     Writing 0b00000000 (0x00)
[21:15:57][VV][i2c:117]:     Writing 0b00000000 (0x00)
[21:15:57][VV][i2c:117]:     Writing 0b00000000 (0x00)
[21:15:57][VV][i2c:117]:     Writing 0b00000000 (0x00)
[21:15:57][VV][i2c:117]:     Writing 0b00000000 (0x00)
[21:15:57][VV][i2c:117]:     Writing 0b00000000 (0x00)
[21:15:57][VV][i2c:084]:     Transmission ended. Status code: 0x00
[21:15:57][VV][i2c:079]: Beginning Transmission to 0x3C:
[21:15:57][VV][i2c:117]:     Writing 0b01000000 (0x40)
[21:15:57][VV][i2c:117]:     Writing 0b00000000 (0x00)
[21:15:57][VV][i2c:117]:     Writing 0b00000000 (0x00)
[21:15:57][VV][i2c:117]:     Writing 0b00000000 (0x00)
[21:15:57][VV][i2c:117]:     Writing 0b00000000 (0x00)
[21:15:57][VV][i2c:117]:     Writing 0b00000000 (0x00)
[21:15:57][VV][i2c:117]:     Writing 0b00000000 (0x00)
[21:15:57][VV][i2c:117]:     Writing 0b00000000 (0x00)
[21:15:57][VV][i2c:117]:     Writing 0b00000000 (0x00)
[21:15:57][VV][i2c:117]:     Writing 0b00000000 (0x00)
[21:15:57][VV][i2c:117]:     Writing 0b00000000 (0x00)
[21:15:57][VV][i2c:117]:     Writing 0b00000000 (0x00)
[21:15:57][VV][i2c:117]:     Writing 0b00000000 (0x00)
[21:15:57][VV][i2c:117]:     Writing 0b00000000 (0x00)
[21:15:57][VV][i2c:117]:     Writing 0b00000000 (0x00)
[21:15:57][VV][i2c:117]:     Writing 0b00000000 (0x00)
[21:15:58][VV][i2c:117]:     Writing 0b00000000 (0x00)
[21:15:58][VV][i2c:084]:     Transmission ended. Status code: 0x00
[21:15:58][VV][i2c:079]: Beginning Transmission to 0x3C:
[21:15:58][VV][i2c:117]:     Writing 0b01000000 (0x40)
[21:15:58][VV][i2c:117]:     Writing 0b00000000 (0x00)
[21:15:58][VV][i2c:117]:     Writing 0b00000000 (0x00)
[21:15:58][VV][i2c:117]:     Writing 0b00000000 (0x00)
[21:15:58][VV][i2c:117]:     Writing 0b00000000 (0x00)
[21:15:58][VV][i2c:117]:     Writing 0b00000000 (0x00)
[21:15:58][VV][i2c:117]:     Writing 0b00000000 (0x00)
[21:15:58][VV][i2c:117]:     Writing 0b00000000 (0x00)
[21:15:58][VV][i2c:117]:     Writing 0b00000000 (0x00)
[21:15:58][VV][i2c:117]:     Writing 0b00000000 (0x00)
[21:15:58][VV][i2c:117]:     Writing 0b00000000 (0x00)
[21:15:58][VV][i2c:117]:     Writing 0b00000000 (0x00)
[21:15:58][VV][i2c:117]:     Writing 0b00000000 (0x00)
[21:15:58][VV][i2c:117]:     Writing 0b00000000 (0x00)
[21:15:58][VV][i2c:117]:     Writing 0b00000000 (0x00)
[21:15:58][VV][i2c:117]:     Writing 0b00000000 (0x00)
[21:15:58][VV][i2c:117]:     Writing 0b00000000 (0x00)
[21:15:58][VV][i2c:084]:     Transmission ended. Status code: 0x00
[21:15:58][VV][i2c:079]: Beginning Transmission to 0x3C:
[21:15:58][VV][i2c:117]:     Writing 0b01000000 (0x40)
[21:15:58][VV][i2c:117]:     Writing 0b00000000 (0x00)
[21:15:58][VV][i2c:117]:     Writing 0b00000000 (0x00)
[21:15:58][VV][i2c:117]:     Writing 0b00000000 (0x00)
[21:15:59][VV][i2c:117]:     Writing 0b00000000 (0x00)
[21:15:59][VV][i2c:117]:     Writing 0b00000000 (0x00)
[21:15:59][VV][i2c:117]:     Writing 0b00000000 (0x00)
[21:15:59][VV][i2c:117]:     Writing 0b00000000 (0x00)
[21:15:59][VV][i2c:117]:     Writing 0b00000000 (0x00)
[21:15:59][VV][i2c:117]:     Writing 0b00000000 (0x00)
[21:15:59][VV][i2c:117]:     Writing 0b00000000 (0x00)
[21:15:59][VV][i2c:117]:     Writing 0b00000000 (0x00)
[21:15:59][VV][i2c:117]:     Writing 0b00000000 (0x00)
[21:15:59][VV][i2c:117]:     Writing 0b00000000 (0x00)
[21:15:59][VV][i2c:117]:     Writing 0b00000000 (0x00)
[21:15:59][VV][i2c:117]:     Writing 0b00000000 (0x00)
[21:15:59][VV][i2c:117]:     Writing 0b00000000 (0x00)
[21:15:59][VV][i2c:084]:     Transmission ended. Status code: 0x00
[21:15:59][VV][i2c:079]: Beginning Transmission to 0x3C:
[21:15:59][VV][i2c:117]:     Writing 0b01000000 (0x40)
[21:15:59][VV][i2c:117]:     Writing 0b00000000 (0x00)
[21:15:59][VV][i2c:117]:     Writing 0b00000000 (0x00)
[21:15:59][VV][i2c:117]:     Writing 0b00000000 (0x00)
[21:15:59][VV][i2c:117]:     Writing 0b00000000 (0x00)
[21:15:59][VV][i2c:117]:     Writing 0b00000000 (0x00)
[21:15:59][VV][i2c:117]:     Writing 0b00000000 (0x00)
[21:15:59][VV][i2c:117]:     Writing 0b00000000 (0x00)
[21:15:59][VV][i2c:117]:     Writing 0b00000000 (0x00)
[21:15:59][VV][i2c:117]:     Writing 0b00000000 (0x00)
[21:15:59][VV][i2c:117]:     Writing 0b00000000 (0x00)
[21:15:59][VV][i2c:117]:     Writing 0b00000000 (0x00)
[21:16:00][VV][i2c:117]:     Writing 0b00000000 (0x00)
[21:16:00][VV][i2c:117]:     Writing 0b00000000 (0x00)
[21:16:00][VV][i2c:117]:     Writing 0b00000000 (0x00)
[21:16:00][VV][i2c:117]:     Writing 0b00000000 (0x00)
[21:16:00][VV][i2c:117]:     Writing 0b00000000 (0x00)
[21:16:00][VV][i2c:084]:     Transmission ended. Status code: 0x00
[21:16:00][VV][i2c:079]: Beginning Transmission to 0x3C:
[21:16:00][VV][i2c:117]:     Writing 0b01000000 (0x40)
[21:16:00][VV][i2c:117]:     Writing 0b00000000 (0x00)
[21:16:00][VV][i2c:117]:     Writing 0b00000000 (0x00)
[21:16:00][VV][i2c:117]:     Writing 0b00000000 (0x00)
[21:16:00][VV][i2c:117]:     Writing 0b00000000 (0x00)
[21:16:00][VV][i2c:117]:     Writing 0b00000000 (0x00)
[21:16:00][VV][i2c:117]:     Writing 0b00000000 (0x00)
[21:16:00][VV][i2c:117]:     Writing 0b00000000 (0x00)
[21:16:00][VV][i2c:117]:     Writing 0b00000000 (0x00)
[21:16:00][VV][i2c:117]:     Writing 0b00000000 (0x00)
[21:16:00][VV][i2c:117]:     Writing 0b00000000 (0x00)
[21:16:00][VV][i2c:117]:     Writing 0b00000000 (0x00)
[21:16:00][VV][i2c:117]:     Writing 0b00000000 (0x00)
[21:16:00][VV][i2c:117]:     Writing 0b00000000 (0x00)
[21:16:00][VV][i2c:117]:     Writing 0b00000000 (0x00)
[21:16:00][VV][i2c:117]:     Writing 0b00000000 (0x00)
[21:16:00][VV][i2c:117]:     Writing 0b00000000 (0x00)
[21:16:00][VV][i2c:084]:     Transmission ended. Status code: 0x00
[21:16:00][VV][i2c:079]: Beginning Transmission to 0x3C:
[21:16:00][VV][i2c:117]:     Writing 0b01000000 (0x40)
[21:16:01][VV][i2c:117]:     Writing 0b00000000 (0x00)
[21:16:01][VV][i2c:117]:     Writing 0b00000000 (0x00)
[21:16:01][VV][i2c:117]:     Writing 0b00000000 (0x00)
[21:16:01][VV][i2c:117]:     Writing 0b00000000 (0x00)
[21:16:01][VV][i2c:117]:     Writing 0b00000000 (0x00)
[21:16:01][VV][i2c:117]:     Writing 0b00000000 (0x00)
[21:16:01][VV][i2c:117]:     Writing 0b00000000 (0x00)
[21:16:01][VV][i2c:117]:     Writing 0b00000000 (0x00)
[21:16:01][VV][i2c:117]:     Writing 0b00000000 (0x00)
[21:16:01][VV][i2c:117]:     Writing 0b00000000 (0x00)
[21:16:01][VV][i2c:117]:     Writing 0b00000000 (0x00)
[21:16:01][VV][i2c:117]:     Writing 0b00000000 (0x00)
[21:16:01][VV][i2c:117]:     Writing 0b00000000 (0x00)
[21:16:01][VV][i2c:117]:     Writing 0b00000000 (0x00)
[21:16:01][VV][
[21:16:01]Soft WDT reset
[21:16:01]
[21:16:01]ctx: cont
[21:16:01]sp: 3ffff370 end: 3fffffd0 offset: 01b0
[21:16:01]
[21:16:01]>>>stack>>>
[21:16:01]3ffff520:  3ffe97c0 3ffe8308 00000200 40218e51
[21:16:01]3ffff530:  3fff3173 3ffff6a0 000001c8 ffff0208
[21:16:01]3ffff540:  3fff313c 000001ff 0000000a 00000003
[21:16:01]3ffff550:  3ffe97c0 3ffe9498 00000010 401004e4
[21:16:01]3ffff560:  3fff1f14 00000264 00000264 4010020c
[21:16:01]3ffff570:  3ffe97c0 00000000 3fff30bc 401006dc
[21:16:01]3ffff580:  00000037 00000037 3ffe949b 00000006
[21:16:01]3ffff590:  00000037 00000000 3fff1d18 4020cc98
[21:16:01]3ffff5a0:  3ffeb534 00000000 3fff30bc 4020cf79
[21:16:01]3ffff5b0:  3fff313c 3ffff660 0000000c 4021e23a
[21:16:02]3ffff5c0:  3ffff5e4 00000039 3fff1d18 4020d171
[21:16:02]3ffff5d0:  3ffe97c0 00000000 3fff30bc 40208064
[21:16:02]3ffff5e0:  3fff3c18 00000000 3fff30bc 4020cf79
[21:16:02]3ffff5f0:  3fff30e4 3ffff6a0 3fff1d18 4020d12c
[21:16:02]3ffff600:  3ffff624 00000000 3fff1d18 3ffff72e
[21:16:02]3ffff610:  3fff3a74 00000031 00000030 40207db9
[21:16:02]3ffff620:  3ffff670 3ffff660 0000000c ffff0208
[21:16:02]3ffff630:  3ffff670 3ffff660 0000000c 00000010
[21:16:02]3ffff640:  0000003c 00000000 3ffe9498 40207ddc
[21:16:02]3ffff650:  3ffff670 3ffff660 0000000c 40207db9
[21:16:02]3ffff660:  3ffff6b0 3ffff6a0 0000000c 3ffe9498
[21:16:02]3ffff670:  00000075 00000030 0000000c 40207ddc
[21:16:02]3ffff680:  3ffff6a0 3ffff690 0000000c 402078ea
[21:16:02]3ffff690:  00000030 00000030 00000030 00000030
[21:16:02]3ffff6a0:  00000030 00000030 00000030 00000000
[21:16:02]3ffff6b0:  3ffff720 00000010 3fff1d18 40207770
[21:16:02]3ffff6c0:  3ffe8f54 00000000 3fff30bc 00000010
[21:16:02]3ffff6d0:  3ffff720 3fff3a74 0000003c 40207b95
[21:16:02]3ffff6e0:  3fff3040 4bc6a7f0 65e353f7 00000000
[21:16:02]3ffff6f0:  00000000 00000000 4bc6a7f0 3fff3b6c
[21:16:02]3ffff700:  3ffff731 000001a0 3fff5324 40207d3c
[21:16:02]3ffff710:  3ffff707 00000190 3fff5324 4020627b
[21:16:02]3ffff720:  00000000 00000000 00000000 00000000
[21:16:02]3ffff730:  3fff63bc 4020ee40 40106740 3fff3b6c
[21:16:02]3ffff740:  40205e08 00000000 3fff5324 40205ead
[21:16:02]3ffff750:  0000029d 00000000 3fff5324 40205ed2
[21:16:02]3ffff760:  00000088 3ffe8f40 3fff5324 402152a4
[21:16:02]3ffff770:  3fff3b90 00000000 3fff5324 402057d0
[21:16:02]3ffff780:  3fff4808 00000000 00001388 ffffe99f
[21:16:02]3ffff790:  0000029d 3fff3c0c 3fff5a64 40204f9a
[21:16:02]3ffff7a0:  00000000 00000264 00000264 00000100
[21:16:03]3ffff7b0:  00000003 0000029d 3fff3464 00000102
[21:16:03]3ffff7c0:  00000003 3fff3464 3fff5324 4020590c
[21:16:03]3ffff7d0:  00000003 3fff3464 3fff1c88 40205376
[21:16:03]3ffff7e0:  3fff3c0c 00000004 000003e2 4010020c
[21:16:03]3ffff7f0:  00000001 00000100 00000004 3fff5a6c
[21:16:03]3ffff800:  3fffff54 3fff1f50 0000000c 00000000
[21:16:03]3ffff810:  3fff1c88 3fffff54 3fffff54 40203c0e
[21:16:03]3ffff820:  0000000c 0000000f feefeffe feefeffe
[21:16:03]3ffff830:  00000000 00000000 00000000 00000000
[21:16:03]3ffff840:  60000318 00004000 3ffe8b00 4024ce40
[21:16:03]3ffff850:  00000000 00000003 00000007 0000000f
[21:16:03]3ffff860:  3ffe8b2c 4024ce4f 00000000 00000004
[21:16:03]3ffff870:  00000007 0000000e 3ffe8b30 4024ce5d
[21:16:03]3ffff880:  00000000 00000004 00000012 0000000f
[21:16:03]3ffff890:  3ffe8b34 4024ce8a 00000000 00000003
[21:16:03]3ffff8a0:  00000007 00000013 3ffe8b38 4024ce9d
[21:16:03]3ffff8b0:  00000000 00000003 00000007 00000013
[21:16:03]3ffff8c0:  3ffe8b3c 4024ceb0 00000000 00000009
[21:16:03]3ffff8d0:  0000000c 00000009 3ffe8b40 4024cec2
[21:16:03]3ffff8e0:  00000000 00000010 00000006 00000005
[21:16:03]3ffff8f0:  3ffe8b44 4024cec7 00000000 0000000b
[21:16:03]3ffff900:  00000007 00000007 3ffe8b48 4024cece
[21:16:03]3ffff910:  00000000 00000010 00000005 00000002
[21:16:03]3ffff920:  3ffea3ac 4024ced0 00000000 00000004
[21:16:03]3ffff930:  0000000b 0000000e 3ffe8b4c 4024ceec
[21:16:03]3ffff940:  00000000 00000004 0000000b 0000000e
[21:16:03]3ffff950:  3ffeb6bc 4024cf08 00000000 00000004
[21:16:03]3ffff960:  0000000b 0000000e 3ffe8b50 4024cf24
[21:16:03]3ffff970:  00000000 00000004 0000000b 0000000e
[21:16:03]3ffff980:  3ffe8b54 4024cf40 00000000 00000004
[21:16:03]3ffff990:  0000000b 0000000e 3ffe8b58 4024cf5c
[21:16:03]3ffff9a0:  00000000 00000004 0000000b 0000000e
[21:16:04]3ffff9b0:  3ffe92cc 4024cf78 00000000 00000004
[21:16:04]3ffff9c0:  0000000b 0000000e 3ffe8b5c 4024cf94
[21:16:04]3ffff9d0:  00000000 00000004 0000000b 0000000e
[21:16:04]3ffff9e0:  3ffe8b60 4024cfb0 00000000 00000004
[21:16:04]3ffff9f0:  0000000b 0000000e 3ffe8b64 4024cfcc
[21:16:04]3ffffa00:  00000000 00000004 0000000b 0000000e
[21:16:04]3ffffa10:  3ffe8b68 4024cfe8 00000000 00000007
[21:16:04]3ffffa20:  00000005 0000000b 3ffe8b6c 4024cff3
[21:16:04]3ffffa30:  00000000 00000003 0000000e 0000000f
[21:16:04]3ffffa40:  3ffe8b70 4024d011 00000000 00000003
[21:16:04]3ffffa50:  0000000d 0000000f 3ffe8b74 4024d02f
[21:16:04]3ffffa60:  00000000 00000003 0000000e 0000000f
[21:16:04]3ffffa70:  3ffe8b78 4024d04d 00000000 00000003
[21:16:04]3ffffa80:  0000000e 0000000f 3ffe8b7c 4024d06b
[21:16:04]3ffffa90:  00000000 00000003 0000000d 0000000f
[21:16:04]3ffffaa0:  3ffe8b80 4024d089 00000000 00000003
[21:16:04]3ffffab0:  0000000c 0000000f 3ffe8b84 4024d0a7
[21:16:04]3ffffac0:  00000000 00000003 0000000f 0000000f
[21:16:04]3ffffad0:  3ffe8b88 4024d0c5 00000000 00000003
[21:16:04]3ffffae0:  0000000e 0000000f 3ffe8b8c 4024d0e3
[21:16:04]3ffffaf0:  00000000 00000003 00000006 0000000f
[21:16:04]3ffffb00:  3ffe8b90 4024d0f2 00000000 00000003
[21:16:04]3ffffb10:  0000000b 0000000f 3ffe8b94 4024d110
[21:16:04]3ffffb20:  00000000 00000003 0000000e 0000000f
[21:16:04]3ffffb30:  3ffe8b98 4024d12e 00000000 00000003
[21:16:04]3ffffb40:  0000000b 0000000f 3ffe8b9c 4024d14c
[21:16:04]3ffffb50:  00000000 00000003 00000011 0000000f
[21:16:04]3ffffb60:  3ffe9254 4024d179 00000000 00000003
[21:16:04]3ffffb70:  0000000f 0000000f 3ffe8ba0 4024d197
[21:16:04]3ffffb80:  00000000 00000003 00000010 0000000f
[21:16:04]3ffffb90:  3ffe92a8 4024d1b5 00000000 00000003
[21:16:05]3ffffba0:  0000000d 0000000f 3ffe8ba4 4024d1d3
[21:16:05]3ffffbb0:  00000000 00000003 00000010 00000011
[21:16:05]3ffffbc0:  3ffe8ba8 4024d1f5 00000000 00000003
[21:16:05]3ffffbd0:  0000000e 0000000f 3ffe8bac 4024d213
[21:16:05]3ffffbe0:  00000000 00000003 0000000d 0000000f
[21:16:05]3ffffbf0:  3ffe9228 4024d231 00000000 00000003
[21:16:05]3ffffc00:  0000000d 0000000f 3ffe8bb0 4024d24f
[21:16:05]3ffffc10:  00000000 00000003 0000000e 0000000f
[21:16:05]3ffffc20:  3ffe8bb4 4024d26d 00000000 00000003
[21:16:05]3ffffc30:  0000000d 0000000f 3ffe8bb8 4024d28b
[21:16:05]3ffffc40:  00000000 00000003 00000013 0000000f
[21:16:05]3ffffc50:  3ffe8bbc 4024d2b8 00000000 00000003
[21:16:05]3ffffc60:  0000000d 0000000f 3ffe8bc0 4024d2d6
[21:16:05]3ffffc70:  00000000 00000003 0000000e 0000000f
[21:16:05]3ffffc80:  3ffe8bc4 4024d2f4 00000000 00000003
[21:16:05]3ffffc90:  0000000c 0000000f 3ffe8bc8 4024d312
[21:16:05]3ffffca0:  ffffffff 00000012 0000000e 00000004
[21:16:05]3ffffcb0:  3ffe8bcc 4024d31a 00000000 00000007
[21:16:05]3ffffcc0:  0000000b 0000000b 3ffe8bd0 4024d330
[21:16:05]3ffffcd0:  00000000 00000003 0000000b 0000000f
[21:16:05]3ffffce0:  3ffe9e70 4024d34e 00000000 00000007
[21:16:05]3ffffcf0:  0000000a 0000000b 3ffec058 4024d364
[21:16:05]3ffffd00:  00000000 00000003 0000000b 0000000f
[21:16:05]3ffffd10:  3ffea2c0 4024d382 00000000 00000007
[21:16:05]3ffffd20:  0000000b 0000000b 3ffe8bd4 4024d398
[21:16:05]3ffffd30:  00000000 00000003 00000006 0000000f
[21:16:05]3ffffd40:  3ffe8bd8 4024d3a7 00000000 00000007
[21:16:05]3ffffd50:  0000000b 0000000f 3ffea394 4024d3c5
[21:16:05]3ffffd60:  00000000 00000003 0000000b 0000000f
[21:16:05]3ffffd70:  3ffe8bdc 4024d3e3 00000000 00000003
[21:16:05]3ffffd80:  00000004 0000000f 3ffe8be0 4024d3f2
[21:16:06]3ffffd90:  00000000 00000003 00000005 00000013
[21:16:06]3ffffda0:  3ffec0e4 4024d405 00000000 00000003
[21:16:06]3ffffdb0:  0000000b 0000000f 3ffec0c4 4024d423
[21:16:06]3ffffdc0:  00000000 00000003 00000004 0000000f
[21:16:06]3ffffdd0:  3ffe9f44 4024d432 00000000 00000007
[21:16:06]3ffffde0:  00000010 0000000b 3ffe9d48 4024d448
[21:16:06]3ffffdf0:  00000000 00000007 0000000b 0000000b
[21:16:06]3ffffe00:  3ffe8be4 4024d45e 00000000 00000007
[21:16:06]3ffffe10:  0000000b 0000000b 3ffe8a94 4024d474
[21:16:06]3ffffe20:  00000000 00000007 0000000b 0000000e
[21:16:06]3ffffe30:  3ffe8be8 4024d490 00000000 00000007
[21:16:06]3ffffe40:  0000000b 0000000e 3ffe8f3c 4024d4ac
[21:16:06]3ffffe50:  00000000 00000007 00000007 0000000b
[21:16:06]3ffffe60:  3ffec128 4024d4b7 00000000 00000007
[21:16:06]3ffffe70:  0000000a 0000000b 3ffe9c8c 4024d4cd
[21:16:06]3ffffe80:  00000000 00000005 00000006 0000000d
[21:16:06]3ffffe90:  3ffe8bec 4024d4da 00000000 00000007
[21:16:06]3ffffea0:  0000000b 0000000b 3ffe8bf0 4024d4f0
[21:16:06]3ffffeb0:  00000000 00000007 0000000a 0000000b
[21:16:06]3ffffec0:  3ffe8bf4 4024d506 00000000 00000007
[21:16:06]3ffffed0:  0000000f 0000000b 3ffe8bf8 4024d51c
[21:16:06]3ffffee0:  00000000 00000007 0000000a 0000000b
[21:16:06]3ffffef0:  3ffe8bfc 4024d532 00000000 00000007
[21:16:06]3fffff00:  0000000a 0000000f 3ffe8c00 4024d550
[21:16:06]3fffff10:  00000000 00000007 0000000a 0000000b
[21:16:06]3fffff20:  3ffe8c04 4024d566 00000000 00000003
[21:16:06]3fffff30:  0000000c 0000000f 3fff3ea4 3fff4794
[21:16:06]3fffff40:  3fff4824 3fff486c 3fff53dc 3fff59cc
[21:16:06]3fffff50:  3fff5a14 3fff47fc 3fff47fc 3fff48b4
[21:16:06]3fffff60:  3fff4bb4 3fff3aec 3fff3df4 3fff5ae4
[21:16:06]3fffff70:  feefeffe feefeffe feefeffe feefeffe
[21:16:06]3fffff80:  3fff3b04 3fff5ae4 00000010 00000012
[21:16:07]3fffff90:  feefeffe feefeffe feefeffe feefeffe
[21:16:07]3fffffa0:  feefeffe feefeffe feefeffe 3fff1dd8
[21:16:07]3fffffb0:  3fffdad0 00000000 3fff1dd0 4020decc
[21:16:07]3fffffc0:  feefeffe feefeffe 3ffe8638 40100721
[21:16:07]<<<stack<<<
[21:16:07]
[21:16:07] ets Jan  8 2013,rst cause:2, boot mode:(3,6)
[21:16:07]
[21:16:07]load 0x4010f000, len 1384, room 16
[21:16:07]tail 8
[21:16:07]chksum 0x2d
[21:16:07]csum 0x2d
[21:16:07]vbb28d4a3
[21:16:07]~ld
[21:16:07][I][log_component:055]: Log initialized
[21:16:07][C][ota:186]: There have been 3 suspected unsuccessful boot attempts.
[21:16:07][I][application:051]: Running through setup()...
[21:16:07][V][application:053]: Sorting components by setup priority...
[21:16:07][C][display.ssd1306:280]: Setting up I2C SSD1306...
[21:16:07][VV][i2c:079]: Beginning Transmission to 0x3C:
[21:16:07][VV][i2c:084]:     Transmission ended. Status code: 0x00
[21:16:07][VV][i2c:079]: Beginning Transmission to 0x3C:
[21:16:07][VV][i2c:117]:     Writing 0b00000000 (0x00)
[21:16:07][VV][i2c:117]:     Writing 0b10101110 (0xAE)
[21:16:07][VV][i2c:084]:     Transmission ended. Status code: 0x00
[21:16:07][VV][i2c:079]: Beginning Transmission to 0x3C:
[21:16:07][VV][i2c:117]:     Writing 0b00000000 (0x00)
[21:16:07][VV][i2c:117]:     Writing 0b11010101 (0xD5)
[21:16:07][VV][i2c:084]:     Transmission ended. Status code: 0x00
[21:16:07][VV][i2c:079]: Beginning Transmission to 0x3C:
[21:16:07][VV][i2c:117]:     Writing 0b00000000 (0x00)
[21:16:07][VV][i2c:117]:     Writing 0b10000000 (0x80)
[21:16:08][VV][i2c:084]:     Transmission ended. Status code: 0x00
[21:16:08][VV][i2c:079]: Beginning Transmission to 0x3C:
[21:16:08][VV][i2c:117]:     Writing 0b00000000 (0x00)
[21:16:08][VV][i2c:117]:     Writing 0b10101000 (0xA8)
[21:16:08][VV][i2c:084]:     Transmission ended. Status code: 0x00
[21:16:08][VV][i2c:079]: Beginning Transmission to 0x3C:
[21:16:08][VV][i2c:117]:     Writing 0b00000000 (0x00)
[21:16:08][VV][i2c:117]:     Writing 0b00111111 (0x3F)
[21:16:08][VV][i2c:084]:     Transmission ended. Status code: 0x00
[21:16:08][VV][i2c:079]: Beginning Transmission to 0x3C:
[21:16:08][VV][i2c:117]:     Writing 0b00000000 (0x00)
[21:16:08][VV][i2c:117]:     Writing 0b11010011 (0xD3)
[21:16:08][VV][i2c:084]:     Transmission ended. Status code: 0x00
[21:16:08][VV][i2c:079]: Beginning Transmission to 0x3C:
[21:16:08][VV][i2c:117]:     Writing 0b00000000 (0x00)
[21:16:08][VV][i2c:117]:     Writing 0b00000000 (0x00)
[21:16:08][VV][i2c:084]:     Transmission ended. Status code: 0x00
[21:16:08][VV][i2c:079]: Beginning Transmission to 0x3C:
[21:16:08][VV][i2c:117]:     Writing 0b00000000 (0x00)
[21:16:08][VV][i2c:117]:     Writing 0b01000000 (0x40)
[21:16:08][VV][i2c:084]:     Transmission ended. Status code: 0x00
[21:16:08][VV][i2c:079]: Beginning Transmission to 0x3C:
[21:16:08][VV][i2c:117]:     Writing 0b00000000 (0x00)
[21:16:08][VV][i2c:117]:     Writing 0b10001101 (0x8D)
[21:16:08][VV][i2c:084]:     Transmission ended. Status code: 0x00
[21:16:08][VV][i2c:079]: Beginning Transmission to 0x3C:
[21:16:09][VV][i2c:117]:     Writing 0b00000000 (0x00)
[21:16:09][VV][i2c:117]:     Writing 0b00010000 (0x10)
[21:16:09][VV][i2c:084]:     Transmission ended. Status code: 0x00
[21:16:09][VV][i2c:079]: Beginning Transmission to 0x3C:
[21:16:09][VV][i2c:117]:     Writing 0b00000000 (0x00)
[21:16:09][VV][i2c:117]:     Writing 0b00100000 (0x20)
[21:16:09][VV][i2c:084]:     Transmission ended. Status code: 0x00
[21:16:09][VV][i2c:079]: Beginning Transmission to 0x3C:
[21:16:09][VV][i2c:117]:     Writing 0b00000000 (0x00)
[21:16:09][VV][i2c:117]:     Writing 0b00000000 (0x00)
[21:16:09][VV][i2c:084]:     Transmission ended. Status code: 0x00
[21:16:09][VV][i2c:079]: Beginning Transmission to 0x3C:
[21:16:09][VV][i2c:117]:     Writing 0b00000000 (0x00)
[21:16:09][VV][i2c:117]:     Writing 0b10100001 (0xA1)
[21:16:09][VV][i2c:084]:     Transmission ended. Status code: 0x00
